(1732112776.419827) vcan0 800#89504E470D0A1A0A
(1732112776.631090) vcan0 800#0000000D49484452
(1732112776.841308) vcan0 800#0000010100000015
(1732112777.375321) vcan0 800#080600000046DC5B
(1732112777.616813) vcan0 800#C400000001735247
(1732112778.087349) vcan0 800#4200AECE1CE90000
(1732112778.469675) vcan0 800#000467414D410000
(1732112778.660493) vcan0 800#B18F0BFC61050000
(1732112779.062727) vcan0 800#0009704859730000
(1732112779.464265) vcan0 800#12740000127401DE
(1732112780.011491) vcan0 800#661F7800000F1249
(1732112780.496732) vcan0 800#444154785EED9C07
(1732112780.855791) vcan0 800#D0144513861BC5AC
(1732112781.303553) vcan0 800#88220A06C08C8228
(1732112781.865495) vcan0 800#660B25086240CC88
(1732112782.339586) vcan0 800#48212AA652C11C00
(1732112782.521073) vcan0 800#032860C0002630A1
(1732112782.945294) vcan0 800#6246102D9520D984
(1732112783.439157) vcan0 800#59412805C4800133
(1732112783.722264) vcan0 800#4630CFDF4FDFCE31
(1732112784.043310) vcan0 800#B797F63E4E7FABBE
(1732112784.530950) vcan0 800#7BABB6BEBBD9BD9D
(1732112784.853232) vcan0 800#994ED3FDCE400DA7
(1732112785.240358) vcan0 800#900A2AA8A0DA62A5
(1732112785.597645) vcan0 800#E86F051554504D51
(1732112786.189192) vcan0 800#0902155450CD5109
(1732112786.427994) vcan0 800#02155450CD911504
(1732112786.939375) vcan0 800#A008C68D1B272D5B
(1732112787.356207) vcan0 800#B694B5D65A4B6AD4
(1732112787.709149) vcan0 800#A821B56AD5928E1D
(1732112788.178933) vcan0 800#3BCADCB973A3A752
(1732112788.753237) vcan0 800#B8FAEAABA54E9D3A
(1732112789.183675) vcan0 800#F2DA6BAF452D99A0
(1732112789.668186) vcan0 800#9DFB3C17C7279F7C
(1732112790.251787) vcan0 800#22A79F7EBA6CB6D9
(1732112790.685634) vcan0 800#66D6C72AABAC223B
(1732112790.985611) vcan0 800#EDB4933CF2C823F2
(1732112791.501230) vcan0 800#D75F7FD933FEF7DC
(1732112791.998842) vcan0 800#2F746DB5D556F2F9
(1732112792.222752) vcan0 800#E79F5B3FB9EEFB2B
(1732112792.451877) vcan0 800#1C2B7D3CF8E083B2
(1732112792.945321) vcan0 800#F5D65B4BCD9A35AD
(1732112793.118281) vcan0 800#FFD6AD5B67CD31C4
(1732112793.667512) vcan0 800#B265CBE490430E91
(1732112794.193143) vcan0 800#7DF7DD577EFAE9A7
(1732112794.612171) vcan0 800#A83505E476EBADB7
(1732112794.807937) vcan0 800#CAFAEBAF9F1E0F98
(1732112795.346504) vcan0 800#366D9ACDAB581FE1
(1732112795.847658) vcan0 800#73C8FBD4534F95EF
(1732112796.271940) vcan0 800#BEFB2EBA9BC21F7F
(1732112796.599637) vcan0 800#FC21D75D779DD4AB
(1732112796.853324) vcan0 800#57CFE6B3F9E69BCB
(1732112797.411125) vcan0 800#EDB7DF9E96572938
(1732112797.578638) vcan0 800#EEB8E3B2E4C3E575
(1732112797.965437) vcan0 800#FDEAABAF464F2E47
(1732112798.211295) vcan0 800#D2FE172F5E2C279E
(1732112798.589637) vcan0 800#78A2D90FF3615E93
(1732112799.005342) vcan0 800#274F361979FCF2CB
(1732112799.272355) vcan0 800#2FB2DF7EFB65F5CF
(1732112799.840950) vcan0 800#C5D8003246D6BCE7
(1732112800.238638) vcan0 800#89279EB0B6389E7C
(1732112800.492854) vcan0 800#F249FB0D7F41BE79
(1732112801.072906) vcan0 800#F9CBBFBB143CFFFC
(1732112801.594875) vcan0 800#F3B2E79E7BDA5C18
(1732112802.028801) vcan0 800#4BE7CE9DCD7E0173
(1732112802.520656) vcan0 800#BAE69A6BECDEA041
(1732112802.924077) vcan0 800#8332E6E8F1CA2BAF
(1732112803.534489) vcan0 800#98CC4E3EF9649361
(1732112804.006924) vcan0 800#1C8F3DF6986CBFFD
(1732112804.438735) vcan0 800#F6699BF14822233F
(1732112804.789507) vcan0 800#FF7C17B6883F63FB
(1732112805.259511) vcan0 800#9B6EBAA93CF3CC33
(1732112805.707955) vcan0 800#F6BB1035A3BF0626
(1732112806.216230) vcan0 800#70EDB5D74ADFBE7D
(1732112806.652235) vcan0 800#65830D3690830F3E
(1732112807.080298) vcan0 800#D88CE2C30F3F94A9
(1732112807.252120) vcan0 800#53A7CA5E7BED2523
(1732112807.560500) vcan0 800#468C90A38E3A2AFA
(1732112807.749505) vcan0 800#45E9A08F51A34699
(1732112807.937169) vcan0 800#40565F7D7539FEF8
(1732112808.388117) vcan0 800#E365D75D7795AFBE
(1732112808.773126) vcan0 800#FA4AEEBAEB2EE9D2
(1732112808.956852) vcan0 800#A58B4C9932456EBB
(1732112809.151377) vcan0 800#ED361B43D7AE5DCD
(1732112809.491079) vcan0 800#F9C0D2A54BE5E9A7
(1732112809.652720) vcan0 800#9F968D36DA485AB5
(1732112809.962753) vcan0 800#6A656D00C75B638D
(1732112810.488353) vcan0 800#35ECF36AABAD2607
(1732112810.751754) vcan0 800#1E78A0FD360E9EA1
(1732112811.032559) vcan0 800#9D3160CC975D7699
(1732112811.499259) vcan0 800#39257F71B8EBAFBF
(1732112811.995454) vcan0 800#5EDAB66D6B82DD63
(1732112812.170010) vcan0 800#8F3DA25FA5C06F6E
(1732112812.563995) vcan0 800#BAE9A674808CE3BD
(1732112813.066612) vcan0 800#F7DE93C18307DB7B
(1732112813.463982) vcan0 800#4F38E10453C0B3CF
(1732112814.032111) vcan0 800#3E2B871F7EB8D4AF
(1732112814.388192) vcan0 800#5FDFDE0D6EBEF966
(1732112814.686538) vcan0 800#EB0365ECB2CB2ED6
(1732112815.111009) vcan0 800#E69FDB6EBBED64D8
(1732112815.404335) vcan0 800#B061327BF66CB9EF
(1732112815.820685) vcan0 800#BEFBE4A38F3E92D1
(1732112816.361628) vcan0 800#A347CB3AEBAC63FD
(1732112816.578496) vcan0 800#9F7FFEF92697638E
(1732112816.761200) vcan0 800#39C69C8380D9AB57
(1732112817.318948) vcan0 800#2F7316EE958A5CB2
(1732112817.843474) vcan0 800#9A33678EE99A8BB1
(1732112818.073554) vcan0 800#FAB924EDFFFBEFBF
(1732112818.470455) vcan0 800#37037DF3CD37E582
(1732112818.835819) vcan0 800#0B2E904D36D9C402
(1732112819.184365) vcan0 800#C5A1871E2AF7DE7B
(1732112819.551114) vcan0 800#AF74EAD4C99EFBE1
(1732112820.021010) vcan0 800#871FCCAE76DB6D37
(1732112820.226411) vcan0 800#D971C71DADCD63F7
(1732112820.747584) vcan0 800#DD778F3EA580DE2F
(1732112821.330430) vcan0 800#BDF452B3130CB910
(1732112821.703573) vcan0 800#F6D9671F9B571C6F
(1732112821.905250) vcan0 800#BCF186C9B559B366
(1732112822.261511) vcan0 800#514B32E0C08C1927
(1732112822.513204) vcan0 800#463704B85B6EB945
(1732112822.942309) vcan0 800#F6DF7F7FB385468D
(1732112823.491661) vcan0 800#1A990C5E7CF14519
(1732112823.791100) vcan0 800#3870A08DB17DFBF6
(1732112824.200792) vcan0 800#D1AFC574880CEBD6
(1732112824.592464) vcan0 800#AD2B975F7EB92D04
(1732112825.096199) vcan0 800#1EC8145B3BEDB4D3
(1732112825.579969) vcan0 800#64BDF5D68B5A9723
(1732112826.159935) vcan0 800#898C58444F3AE924
(1732112826.400320) vcan0 800#FB1CE2CB2FBF9489
(1732112826.745048) vcan0 800#1327CA965B6E6932
(1732112827.223576) vcan0 800#C1BFF0EB3E7DFAD8
(1732112827.528713) vcan0 800#6F194F1A3A903416
(1732112828.068147) vcan0 800#2E5CE834BABB76ED
(1732112828.323757) vcan0 800#DAB9254B9644AD29
(1732112828.617279) vcan0 800#CC9B37CF6DB3CD36
(1732112829.074921) vcan0 800#4E0341FADE55575D
(1732112829.496328) vcan0 800#E5D4019DAE1AF63D
(1732112829.837689) vcan0 800#0EDAB9CF731E3367
(1732112830.268127) vcan0 800#CEB4367504F7EDB7
(1732112830.779034) vcan0 800#DF46AD29FCFEFBEF
(1732112831.088691) vcan0 800#4E07E9565E7965A7
(1732112831.340114) vcan0 800#AB6AD4BA1C9F7DF6
(1732112831.684046) vcan0 800#99D349B96EDDBA45
(1732112831.985285) vcan0 800#2D9928361E0F3FCF
(1732112832.476914) vcan0 800#EEDDBB5B9F1EF3E7
(1732112833.101677) vcan0 800#CF770D1B36746AE4
(1732112833.672733) vcan0 800#19ED80716FBCF1C6
(1732112833.866046) vcan0 800#F6FE366DDAB81F7F
(1732112834.129475) vcan0 800#FC31BA93820627A7
(1732112834.566624) vcan0 800#CE94D1B7AE86F63E
(1732112834.958261) vcan0 800#DEEBA186E83488B9
(1732112835.390742) vcan0 800#33CF3CD3BEAB81BB
(1732112835.789146) vcan0 800#030E38C069D071DF
(1732112836.066372) vcan0 800#7CF38DB581871F7E
(1732112836.533134) vcan0 800#D8ADB9E69A4EB315
(1732112836.831938) vcan0 800#FBEE7F877CFEFEFB
(1732112837.033306) vcan0 800#6F6B638CCC81B930
(1732112837.165378) vcan0 800#A752800CF3C98AF1
(1732112837.729161) vcan0 800#6A40B2FE5E7FFD75
(1732112838.196997) vcan0 800#6B4BDABF0609A74E
(1732112838.520301) vcan0 800#E87475B3EF807931
(1732112838.815982) vcan0 800#3FECEAE79F7FB6B6
(1732112839.057022) vcan0 800#975F7ED9A9E1673C
(1732112839.403373) vcan0 800#17073246D6982997
(1732112839.704082) vcan0 800#3A5BBA6F0FCD10EC
(1732112840.058811) vcan0 800#1E7FF3E1830F3E30
(1732112840.636058) vcan0 800#DB5567C9D26B21E8
(1732112841.109278) vcan0 800#E2E33A74E8E01A37
(1732112841.626596) vcan0 800#6EEC3EFEF8E3A8D5
(1732112841.921359) vcan0 800#B9E9D3A73B5D1C9D
(1732112842.188690) vcan0 800#06FCA865B9ED346D
(1732112842.558753) vcan0 800#DAD46996606DF445
(1732112842.975439) vcan0 800#9FC88DF986402667
(1732112843.230488) vcan0 800#9C7186D30CC2C68F
(1732112843.482124) vcan0 800#5D63DF2192C82817
(1732112843.771122) vcan0 800#BC5ED0A10691A835
(1732112843.929365) vcan0 800#252B6C540374D492
(1732112844.132253) vcan0 800#424639A04E69D187
(1732112844.573044) vcan0 800#95AA76EDDA516B0A
(1732112845.086455) vcan0 800#2A4439E288234485
(1732112845.556329) vcan0 800#219F7EFA69D45A1A
(1732112846.019214) vcan0 800#4885860E1D6AD1F0
(1732112846.352979) vcan0 800#C61B6FB4153C04ED
(1732112846.737611) vcan0 800#3D7BF6B415F2DD77
(1732112847.052107) vcan0 800#DF159D4C74A7BC20
(1732112847.251637) vcan0 800#BA3257329D303213
(1732112847.611300) vcan0 800#D59B376F6E51F4D7
(1732112848.066941) vcan0 800#5F7F8D5A53D19CF4
(1732112848.312491) vcan0 800#569526071D7450D4
(1732112848.892388) vcan0 800#9A893FFFFC53D440
(1732112849.223011) vcan0 800#A36F29305F35808C
(1732112849.529000) vcan0 800#9596B46CEDB5D736
(1732112849.876514) vcan0 800#3903C6326BD62C39
(1732112850.097275) vcan0 800#ECB0C3EC9E073A20
(1732112850.361002) vcan0 800#95234B503DC90B2F
(1732112850.755112) vcan0 800#BC60EFE3395666C0
(1732112851.050729) vcan0 800#D88F3DF6581B2FAB
(1732112851.489288) vcan0 800#5CB9408944E6C2AA
(1732112851.740836) vcan0 800#CEEA0D92F6AFCE60
(1732112852.137625) vcan0 800#E97F98A991422303
(1732112852.639212) vcan0 800#CA062F23D269DEA3
(1732112852.796287) vcan0 800#8E63DF0B810C944C
(1732112853.138560) vcan0 800#894C71D2A449516B
(1732112853.727220) vcan0 800#3230E68B2EBAC83E
(1732112854.206874) vcan0 800#B30A86FA2E067484
(1732112854.408381) vcan0 800#0C34484B83060DA2
(1732112854.613979) vcan0 800#56B1559439F16E0F
(1732112854.950630) vcan0 800#644626A80147FAF7
(1732112855.299526) vcan0 800#EF2FBFFDF69BDC70
(1732112855.680183) vcan0 800#C30D3272E44839E7
(1732112855.940848) vcan0 800#9C73B2B21BDA860F
(1732112856.133530) vcan0 800#1F2E471E79A45C78
(1732112856.696954) vcan0 800#E185516B264A9151
(1732112857.239994) vcan0 800#085D40ACC420C3C5
(1732112857.493377) vcan0 800#A643207F6C354446
(1732112857.957607) vcan0 800#1020B5D0D54E264C
(1732112858.363640) vcan0 800#9890AE7942E84A2B
(1732112858.575561) vcan0 800#1AAD44A35DD4521A
(1732112859.152808) vcan0 800#162D5A6469D3DE7B
(1732112859.606847) vcan0 800#EF2D1A5DA3D64C90
(1732112860.193556) vcan0 800#769182918AAEBAEA
(1732112860.433444) vcan0 800#AA516B798183A1E0
(1732112860.956956) vcan0 800#7859436078FFFDF7
(1732112861.213167) vcan0 800#4557E0B4B1A068D2
(1732112861.400811) vcan0 800#3CD25A380CEF0049
(1732112861.889470) vcan0 800#405A8883630C9434
(1732112862.141463) vcan0 800#BA0A1A6F80D31050
(1732112862.582659) vcan0 800#014180548D522004
(1732112863.129895) vcan0 800#4118C3E23EE9B6AE
(1732112863.553047) vcan0 800#C89632328E10A47B
(1732112863.960063) vcan0 800#040FD2F872821A98
(1732112864.203695) vcan0 800#1414E7D6153971FF
(1732112864.575906) vcan0 800#04775DC1D2E9264E
(1732112864.753225) vcan0 800#C4FC67CC98610194
(1732112865.125626) vcan0 800#D206503EB108506F
(1732112865.466352) vcan0 800#93E2E7E30E006523
(1732112865.642441) vcan0 800#A934CFE130C82F29
(1732112866.132740) vcan0 800#48B729BDCE3AEB2C
(1732112866.515405) vcan0 800#E3304A01019CE0C7
(1732112866.744800) vcan0 800#9C00E35AB06081F4
(1732112867.072661) vcan0 800#EEDDDB9C897A3D04
(1732112867.524717) vcan0 800#0192A0F8D0430FC9
(1732112867.882079) vcan0 800#25975C62BFA3BC3D
(1732112868.465240) vcan0 800#F7DC73B3EC66C30D
(1732112868.792650) vcan0 800#37B4920F5E2A5729
(1732112869.135276) vcan0 800#004A9191073E869F
(1732112869.535660) vcan0 800#62E3946049901104
(1732112870.048537) vcan0 800#7040C88D77DE79C7
(1732112870.606965) vcan0 800#0486B33361EAC370
(1732112871.040978) vcan0 800#650C412D4D946392
(1732112871.452314) vcan0 800#F18BF690DCD214C8
(1732112871.989629) vcan0 800#1C8189941291FF0D
(1732112872.564413) vcan0 800#205494C24A862231
(1732112872.867713) vcan0 800#3C70E79D775A5044
(1732112873.065348) vcan0 800#A1F1EC280E6A5156
(1732112873.423409) vcan0 800#080FF88CFBEFBFDF
(1732112873.965302) vcan0 800#B804020B0E403D49
(1732112874.575104) vcan0 800#9B57105119DE05D9
(1732112874.752394) vcan0 800#87403EFC86A08BCC
(1732112874.962481) vcan0 800#0846382059440878
(1732112875.430157) vcan0 800#0E8225E32E27782F
(1732112875.788790) vcan0 800#8EBC22FDC30D60E0
(1732112876.182828) vcan0 800#D4A2109D3822E05D
(1732112876.323036) vcan0 800#6FBFFDB6055C1C06
(1732112876.904961) vcan0 800#0727F3A01FE4020F
(1732112877.380034) vcan0 800#12C7165B6C612B2C
(1732112877.870800) vcan0 800#8E918F808BC307A0
(1732112878.039783) vcan0 800#1D76D8C1C8BC1501
(1732112878.580576) vcan0 800#A41D41998CF8B9E7
(1732112879.159997) vcan0 800#9E93BBEFBE3BCDE9
(1732112879.535776) vcan0 800#78A033E6C258E186
(1732112879.714840) vcan0 800#70E07EFDFAE5B475
(1732112880.112008) vcan0 800#EE631F5AFA462D99
(1732112880.451463) vcan0 800#A88A8C00D912633D
(1732112880.868565) vcan0 800#EFBCF3D23C9987D7
(1732112881.182116) vcan0 800#551C59BB0330C328
(1732112881.546735) vcan0 800#14A69DC8C360892A
(1732112881.838638) vcan0 800#18F0D1471F9D9521
(1732112882.080776) vcan0 800#60F84440C889F845
(1732112882.327201) vcan0 800#7B48D27CF1C517B2
(1732112882.700021) vcan0 800#64C9127BEF3F857C
(1732112883.127971) vcan0 800#4189D52ADF2E0606
(1732112883.363458) vcan0 800#75CF3DF7C815575C
(1732112883.851235) vcan0 800#6186EBC92B3212E4
(1732112884.186139) vcan0 800#802115CB7E50164E
(1732112884.410074) vcan0 800#13122E63C68C911E
(1732112884.804269) vcan0 800#3D7A98F1DC71C71D
(1732112884.982716) vcan0 800#3264C810BB4F5981
(1732112885.532385) vcan0 800#21011860C6B7D24A
(1732112885.797638) vcan0 800#59AA4883404110C6
(1732112886.080159) vcan0 800#6078F6DF0041D097
(1732112886.421861) vcan0 800#6B55E99F520EFD93
(1732112886.888632) vcan0 800#0E93CA337732298C
(1732112887.245327) vcan0 800#1BA28FCC88959455
(1732112887.573174) vcan0 800#0D929800F1D24B2F
(1732112888.080014) vcan0 800#999CD103B61207A9
(1732112888.247817) vcan0 800#33A464D2B260E6CC
(1732112888.836819) vcan0 800#999689A1D3B0D4AA
(1732112889.319094) vcan0 800#0AB011C645864A30
(1732112889.718587) vcan0 800#C41748B9E3207BF0
(1732112890.007281) vcan0 800#C181CCBAAAFD5645
(1732112890.552437) vcan0 800#467C1F3B76AC9562
(1732112891.142728) vcan0 800#F1F203904D606764
(1732112891.493156) vcan0 800#9E19D0C915042483
(1732112891.745119) vcan0 800#660646646920C820
(1732112892.009560) vcan0 800#1B4A2506FDF72BAF
(1732112892.574573) vcan0 800#BCD2BE978A24C420
(1732112892.952924) vcan0 800#A4941A9F1132E1D5
(1732112893.204449) vcan0 800#B3674F2388E25003
(1732112893.741455) vcan0 800#77EAE846D0686476
(1732112894.178298) vcan0 800#9A7A5BBB27B3F82D
(1732112894.498991) vcan0 800#32F0A0EF3831A841
(1732112894.766141) vcan0 800#D30821AD09A316E7
(1732112895.012841) vcan0 800#162F5E6C6D719295
(1732112895.236856) vcan0 800#CFAA24D7BC7973EB
(1732112895.665360) vcan0 800#03B206F2274E1C01
(1732112896.040530) vcan0 800#FAF284119F5BB66C
(1732112896.418005) vcan0 800#E9B48C89EEA6504C
(1732112896.627569) vcan0 800#26F9C0F38574A72B
(1732112897.075138) vcan0 800#8E8DBD1CFD43E641
(1732112897.473403) vcan0 800#28A29B71E3C645AD
(1732112897.988826) vcan0 800#B9810E35DB705A3E
(1732112898.162174) vcan0 800#A489C150DE9EE4D3
(1732112898.566790) vcan0 800#52C5A9D1E72506D1
(1732112899.062712) vcan0 800#19046F5548D362F0
(1732112899.605929) vcan0 800#B6817ED17308085D
(1732112900.146649) vcan0 800#E659BF7E7D23B8B1
(1732112900.721355) vcan0 800#2DE65F08CCD9CB39
(1732112900.972521) vcan0 800#094219858044D695
(1732112901.384671) vcan0 800#3E4D26C7814C3423
(1732112901.679851) vcan0 800#CB22E5F32F3F1148
(1732112901.853605) vcan0 800#65883C44C0071E78
(1732112902.129497) vcan0 800#C0880F56B8AA80AD
(1732112902.708768) vcan0 800#325617D21C56845C
(1732112903.054266) vcan0 800#A09D741C3226D76A
(1732112903.602866) vcan0 800#500CA4E31040A4F1
(1732112904.104552) vcan0 800#E1454A1EAF0989B4
(1732112904.473665) vcan0 800#AC4E10286CF3900D
(1732112905.012275) vcan0 800#F874975A904C8055
(1732112905.284311) vcan0 800#8714CA6714A4F2EC
(1732112905.595955) vcan0 800#E993C2B3C2905D50
(1732112905.764361) vcan0 800#3FB30DE3D35D4036
(1732112906.118385) vcan0 800#05A1C8336119C167
(1732112906.540177) vcan0 800#5253085664495644
(1732112906.900850) vcan0 800#CD1D9FAB5F317D0A
(1732112907.443665) vcan0 800#8E1ED4482C1D0CC1
(1732112907.966884) vcan0 800#1C58754953CB09FA
(1732112908.412434) vcan0 800#66C58010230B5C91
(1732112908.674396) vcan0 800#FE911BE72B286F58
(1732112908.954743) vcan0 800#990124612E1B800C
(1732112909.327724) vcan0 800#A50F32C65C408749
(1732112909.658589) vcan0 800#CA023256F4C7766E
(1732112909.857860) vcan0 800#A95C4031B0BA432A
(1732112910.401507) vcan0 800#9376879931DB9067
(1732112910.649154) vcan0 800#9F7DB6D9025908DC
(1732112910.980954) vcan0 800#1765A406DAE889D2
(1732112911.368049) vcan0 800#508A8C78EEA9A79E
(1732112911.759031) vcan0 800#327DE5DAC206E850
(1732112911.975031) vcan0 800#03886579640AFE5C
(1732112912.302891) vcan0 800#424610A06EE3251A
(1732112912.572296) vcan0 800#39A3964C204C8C38
(1732112913.129132) vcan0 800#D7C0928054897D54
(1732112913.563026) vcan0 800#1C0C25E6028E43CA
(1732112913.844041) vcan0 800#83E1ACBBEEBA516B
(1732112914.198843) vcan0 800#F9E1F7B3096C7E7F
(1732112914.429431) vcan0 800#3FACDD48E91E7DF4
(1732112914.946256) vcan0 800#D1AC8B54AB499326
(1732112915.449469) vcan0 800#C61F1040D8C38508
(1732112915.809329) vcan0 800#83BCA16CC86794F9
(1732112916.330908) vcan0 800#804C2189D80D09C1
(1732112916.840609) vcan0 800#F820A148E17042E4
(1732112917.333177) vcan0 800#86D271C410E80A67
(1732112917.743723) vcan0 800#CD47B456151081F3
(1732112918.327588) vcan0 800#E6CD33434EDA3FA5
(1732112918.760132) vcan0 800#0D8467870E1D2C38
(1732112919.251638) vcan0 800#84802DC76E903181
(1732112919.636503) vcan0 800#9339137CE3C091D8
(1732112919.891498) vcan0 800#4908D9F838C2B260
(1732112920.159848) vcan0 800#FCF8F1516B269027
(1732112920.672235) vcan0 800#63A524495AC2C401
(1732112921.107662) vcan0 800#294A7DCF02120773
(1732112921.531539) vcan0 800#25B5F6A52DFABAF8
(1732112921.981006) vcan0 800#E28BEDF38001038C
(1732112922.143472) vcan0 800#D1E7101160718074
(1732112922.568174) vcan0 800#2E05A5CA88F77336
(1732112922.991363) vcan0 800#A3458B1659E4AD07
(1732112923.470390) vcan0 800#F287E3A3B42330B1
(1732112924.052831) vcan0 800#0900328200064E74
(1732112924.298012) vcan0 800#A063BF85E5C10B38
(1732112924.614004) vcan0 800#1CC264E307179202
(1732112925.097204) vcan0 800#03E0600406C21649
(1732112925.464047) vcan0 800#FC441CD18D28FFF5
(1732112925.683488) vcan0 800#D75F5B408A131BE5
(1732112926.079716) vcan0 800#0273E1200B873DD8
(1732112926.431819) vcan0 800#02230B881B0ACE47
(1732112926.818851) vcan0 800#DD17BF103CCAA1CE
(1732112927.119592) vcan0 800#250300D4FC1C7A82
(1732112927.665391) vcan0 800#C081FC04AC8C6CCF
(1732112927.960050) vcan0 800#402021330F3E134C
(1732112928.353436) vcan0 800#500035234100796A
(1732112928.858887) vcan0 800#3A9B61281C988267
(1732112929.107982) vcan0 800#C0A1181BCE88FC78
(1732112929.431628) vcan0 800#CE071AE6419FBC6B
(1732112929.752787) vcan0 800#E79D77B6B67280E0
(1732112930.118051) vcan0 800#03B1C48AC79C4192
(1732112930.355366) vcan0 800#FEC9C23040827CB8
(1732112930.604126) vcan0 800#FAF11C19144EC376
(1732112931.149369) vcan0 800#1FF2DA76DB6D8DB9
(1732112931.416345) vcan0 800#27E87BB013F2F8E3
(1732112931.798720) vcan0 800#8F5BC02914D41887
(1732112932.173148) vcan0 800#DF2D806BC985B7DE
(1732112932.518094) vcan0 800#7ACBC6BF22191299
(1732112933.059166) vcan0 800#2B01903986BA61CC
(1732112933.466067) vcan0 800#8C9D79A03FE4C178
(1732112934.085466) vcan0 800#C810F11D7FD08CD5
(1732112934.526255) vcan0 800#163B27A0428E2287
(1732112934.769426) vcan0 800#A42855466496F80D
(1732112935.171477) vcan0 800#7DE70B7AE8956C81
(1732112935.636904) vcan0 800#319191A7A1134883
(1732112935.837033) vcan0 800#9A811A98660EAA50
(1732112936.167576) vcan0 800#3BF05D0DC10E3CD0
(1732112936.605406) vcan0 800#1ED6C8D42685EA4A
(1732112936.918857) vcan0 800#DAB9CF731ED44743
(1732112937.412994) vcan0 800#870EB5F7D7AD5BD7
(1732112937.733219) vcan0 800#A9333A750AA7D1D3
(1732112937.947125) vcan0 800#EAA242759446F682
(1732112938.407593) vcan0 800#F567B1F1784C9C38
(1732112938.798471) vcan0 800#D1FAD728EF7AF4E8
(1732112939.030241) vcan0 800#61730A2F8DE07650
(1732112939.341003) vcan0 800#2417E83BD761216A
(1732112939.511087) vcan0 800#52EAC0B973E7462D
(1732112939.993133) vcan0 800#CE697961FD50BF6A
(1732112940.461296) vcan0 800#39E5D4609D6618D6
(1732112940.656938) vcan0 800#366AD4A8E829E7C6
(1732112941.111029) vcan0 800#8E1D9B7E8E673CFF
(1732112941.676997) vcan0 800#12F209BE9E433ED4
(1732112941.852432) vcan0 800#BA23468C70EDDBB7
(1732112942.418169) vcan0 800#B71A3049DD1907F3
(1732112942.725042) vcan0 800#C8C59FA8E11A3F12
(1732112942.957095) vcan0 800#1F63D2FEE18BE08D
(1732112943.276332) vcan0 800#D0AD06743772E4C8
(1732112943.688140) vcan0 800#9CCFF16EFA504377
(1732112944.015340) vcan0 800#C3860D7343860C71
(1732112944.168383) vcan0 800#1A14330ED6E4E204
(1732112944.421050) vcan0 800#42F8FA1BBB0C3901
(1732112944.889404) vcan0 800#FAD092D2356BD6CC
(1732112945.353092) vcan0 800#699612B5560D7E9C
(1732112945.712401) vcan0 800#E80DDD304E6C301C
(1732112946.023392) vcan0 800#A77F267EF80C7018
(1732112946.299014) vcan0 800#AC63C78E59F20C81
(1732112946.472098) vcan0 800#DDE6E20492C8C883
(1732112946.964844) vcan0 800#0345C802DBCE07EE
(1732112947.288598) vcan0 800#D5AB572FCB3F3282
(1732112947.646734) vcan0 800#008028A3734E0662
(1732112948.020604) vcan0 800#880818A3C040113A
(1732112948.490489) vcan0 800#F73DAA12043CE6CC
(1732112948.989026) vcan0 800#99E3B4AE721AADD3
(1732112949.305540) vcan0 800#41476B29A7D134AF
(1732112949.706082) vcan0 800#41972B08E064F499
(1732112950.125620) vcan0 800#EFCA6774A0501088
(1732112950.623549) vcan0 800#F7CD3C264D9A64B2
(1732112950.939549) vcan0 800#C37990A3A66B5973
(1732112951.450386) vcan0 800#8C3F87DC4F39E594
(1732112952.024939) vcan0 800#AC1395181401CA07
(1732112952.225096) vcan0 800#64CD34DCF0E1C333
(1732112952.756694) vcan0 800#749214CC233E6F2E
(1732112953.092474) vcan0 800#F4D1B97367D34F1C
(1732112953.362065) vcan0 800#49FB5FB468912D1C
(1732112953.497347) vcan0 800#E894F968F994653B
(1732112953.879299) vcan0 800#F139F32CA7F3348D
(1732112954.430449) vcan0 800#8F9E281E0470B84E
(1732112954.659142) vcan0 800#9D3AD958C22050EC
(1732112955.121334) vcan0 800#77A520DF38BD7C3C
(1732112955.382483) vcan0 800#51193F9D1702E298
(1732112955.852149) vcan0 800#D3843C978B9CCE17
(1732112956.451974) vcan0 800#0492C8C82389EDE7
(1732112956.730271) vcan0 800#B25150F94F45CA04
(1732112957.049685) vcan0 800#D2364E1572A6009E
(1732112957.442445) vcan0 800#A0820AFE6BC867A3
(1732112957.648996) vcan0 800#4577072A480608A2
(1732112958.000778) vcan0 800#427BFD1554F05F40
(1732112958.480859) vcan0 800#48667A54ACB64C80
(1732112958.741259) vcan0 800#20622B91D396FF8F
(1732112959.083436) vcan0 800#E40A4297AD2348A1
(1732112959.352878) vcan0 800#6297D6E6D1AFAA1F
(1732112959.760581) vcan0 800#AAAB9CD86E64DB12
(1732112960.110912) vcan0 800#1217423544A51C28
(1732112960.459856) vcan0 800#131023FFCC967FF2
(1732112960.732226) vcan0 800#AA75979D08F45B30
(1732112961.084228) vcan0 800#FF0650323B13FC2D
(1732112961.671331) vcan0 800#06186FAEEA88EA28
(1732112961.894987) vcan0 800#27B61B3977C36E1B
(1732112962.335219) vcan0 800#FFAC9B1DA7E510F9
(1732112962.650639) vcan0 800#1FBE15173772A088
(1732112962.944723) vcan0 800#160000000049454E
(1732112963.199285) vcan0 800#44AE426082
